 (000.000000)  can0  364   [4]  8A 01 00 00
 (000.199943)  can0  364   [4]  8A 01 00 00
 (000.015051)  can0  3A4   [6]  1B 09 07 01 01 5E
 (000.015030)  can0  624   [7]  0E CC D1 00 01 1D 1D
 (000.169887)  can0  364   [4]  8A 01 00 00
 (000.199989)  can0  364   [4]  8A 01 00 00
 (000.200020)  can0  364   [4]  8A 01 00 00
 (000.199989)  can0  364   [4]  8A 01 00 00
 (000.199993)  can0  364   [4]  8A 01 00 00
 (000.015093)  can0  3A4   [6]  1C 09 07 01 01 5E
 (000.015463)  can0  624   [7]  0E D1 D1 00 01 1D 1D
 (000.169465)  can0  364   [4]  8A 01 00 00
 (000.199956)  can0  364   [4]  8A 01 00 00
 (000.199982)  can0  364   [4]  8A 01 00 00
 (000.200038)  can0  364   [4]  8A 01 00 00
 (000.200000)  can0  364   [4]  8A 01 00 00
 (000.015088)  can0  3A4   [6]  1D 09 07 01 01 5E
 (000.015474)  can0  624   [7]  0E D6 D1 00 01 1D 1D
 (000.169450)  can0  364   [4]  8A 01 00 00
 (000.199996)  can0  364   [4]  8A 01 00 00
 (000.199966)  can0  364   [4]  8A 01 00 00
 (000.200036)  can0  364   [4]  8A 01 00 00
 (000.199955)  can0  364   [4]  8A 01 00 00
 (000.015106)  can0  3A4   [6]  1E 09 07 01 01 5E
 (000.015044)  can0  624   [7]  0E DB D1 00 01 1D 1D
 (000.169886)  can0  364   [4]  8A 01 00 00
 (000.199957)  can0  364   [4]  8A 01 00 00
 (000.200024)  can0  364   [4]  8A 01 00 00
 (000.200008)  can0  364   [4]  8A 01 00 00
 (000.199982)  can0  364   [4]  8A 01 00 00
 (000.015105)  can0  3A4   [6]  1F 09 07 01 01 5E
 (000.015453)  can0  624   [7]  0E E0 D1 00 01 1D 1D
 (000.169409)  can0  364   [4]  8A 01 00 00
 (000.200030)  can0  364   [4]  8A 01 00 00
 (000.199981)  can0  364   [4]  8A 01 00 00
 (000.199906)  can0  364   [4]  8A 01 00 00
 (000.200134)  can0  364   [4]  8A 01 00 00
 (000.015077)  can0  3A4   [6]  20 09 07 01 01 5E
 (000.015439)  can0  624   [7]  0E E5 D1 00 01 1D 1D
 (000.169544)  can0  364   [4]  8A 01 00 00
 (000.199903)  can0  364   [4]  8A 01 00 00
 (000.200012)  can0  364   [4]  8A 01 00 00
 (000.199978)  can0  364   [4]  8A 01 00 00
 (000.200012)  can0  364   [4]  8A 01 00 00
 (000.015075)  can0  3A4   [6]  21 09 07 01 01 5E
 (000.015476)  can0  624   [7]  0E EA D1 00 01 1D 1D
 (000.169442)  can0  364   [4]  8A 01 00 00
 (000.199986)  can0  364   [4]  8A 01 00 00
 (000.200040)  can0  364   [4]  8A 01 00 00
 (000.199966)  can0  364   [4]  8A 01 00 00
 (000.200002)  can0  364   [4]  8A 01 00 00
 (000.015093)  can0  3A4   [6]  22 09 07 01 01 5E
 (000.015463)  can0  624   [7]  0E EF D1 00 01 1D 1D
 (000.169485)  can0  364   [4]  8A 01 00 00
 (000.199975)  can0  364   [4]  8A 01 00 00
 (000.199994)  can0  364   [4]  8A 01 00 00
 (000.199942)  can0  364   [4]  8A 01 00 00
 (000.200025)  can0  364   [4]  8A 01 00 00
 (000.015079)  can0  3A4   [6]  23 09 07 01 01 5E
 (000.015470)  can0  624   [7]  0E F4 D1 00 01 1D 1D
 (000.169563)  can0  364   [4]  8A 01 00 00
 (000.199865)  can0  364   [4]  8A 01 00 00
 (000.200027)  can0  364   [4]  8A 01 00 00
 (000.200006)  can0  364   [4]  8A 01 00 00
 (000.199986)  can0  364   [4]  8A 01 00 00
 (000.015118)  can0  3A4   [6]  24 09 07 01 01 5E
 (000.015151)  can0  624   [7]  0E F9 D1 00 01 1D 1D
 (000.169758)  can0  364   [4]  8A 01 00 00
 (000.199923)  can0  364   [4]  8A 01 00 00
 (000.200056)  can0  364   [4]  8A 01 00 00
 (000.199990)  can0  364   [4]  8A 01 00 00
 (000.200050)  can0  364   [4]  8A 01 00 00
 (000.015035)  can0  3A4   [6]  25 09 07 01 01 5E
 (000.015485)  can0  624   [7]  0E FE D1 00 01 1D 1D
 (000.169279)  can0  364   [4]  8A 01 00 00
 (000.200141)  can0  364   [4]  8A 01 00 00
 (000.199983)  can0  364   [4]  8A 01 00 00
 (000.200019)  can0  364   [4]  8A 01 00 00
 (000.199983)  can0  364   [4]  8A 01 00 00
 (000.015121)  can0  3A4   [6]  26 09 07 01 01 5E
 (000.015443)  can0  624   [7]  0E 03 D1 00 01 1D 1D
 (000.169566)  can0  364   [4]  8A 01 00 00
 (000.199875)  can0  364   [4]  8A 01 00 00
 (000.199874)  can0  364   [4]  8A 01 00 00
 (000.200101)  can0  364   [4]  8A 01 00 00
 (000.200028)  can0  364   [4]  8A 01 00 00
 (000.015076)  can0  3A4   [6]  27 09 07 01 01 5E
 (000.015483)  can0  624   [7]  0E 08 D1 00 01 1D 1D
 (000.169281)  can0  364   [4]  8A 01 00 00
 (000.200139)  can0  364   [4]  8A 01 00 00
 (000.200032)  can0  364   [4]  8A 01 00 00
 (000.199973)  can0  364   [4]  8A 01 00 00
 (000.200010)  can0  364   [4]  8A 01 00 00
 (000.015086)  can0  3A4   [6]  28 09 07 01 01 5E
 (000.015454)  can0  624   [7]  0E 0D D1 00 01 1D 1D
 (000.169558)  can0  364   [4]  8A 01 00 00
 (000.199889)  can0  364   [4]  8A 01 00 00
 (000.200033)  can0  364   [4]  8A 01 00 00
 (000.199973)  can0  364   [4]  8A 01 00 00
 (000.199990)  can0  364   [4]  8A 01 00 00
 (000.015085)  can0  3A4   [6]  29 09 07 01 01 5E
 (000.015474)  can0  624   [7]  0E 12 D1 00 01 1D 1D
 (000.169427)  can0  364   [4]  8A 01 00 00
 (000.200011)  can0  364   [4]  8A 01 00 00
 (000.199986)  can0  364   [4]  8A 01 00 00
 (000.200031)  can0  364   [4]  8A 01 00 00
 (000.199995)  can0  364   [4]  8A 01 00 00
 (000.015089)  can0  3A4   [6]  2A 09 07 01 01 5E
 (000.015451)  can0  624   [7]  0E 17 D1 00 01 1D 1D
 (000.169473)  can0  364   [4]  8A 01 00 00
 (000.199958)  can0  364   [4]  8A 01 00 00
 (000.200011)  can0  364   [4]  8A 01 00 00
 (000.199974)  can0  364   [4]  8A 01 00 00
 (000.200053)  can0  364   [4]  8A 01 00 00
 (000.015048)  can0  3A4   [6]  2B 09 07 01 01 5E
 (000.015479)  can0  624   [7]  0E 1C D1 00 01 1D 1D
 (000.169536)  can0  364   [4]  8A 01 00 00
 (000.199891)  can0  364   [4]  8A 01 00 00
 (000.200002)  can0  364   [4]  8A 01 00 00
 (000.200026)  can0  364   [4]  8A 01 00 00
 (000.199943)  can0  364   [4]  8A 01 00 00
 (000.015106)  can0  3A4   [6]  2C 09 07 01 01 5E
 (000.015467)  can0  624   [7]  0E 21 D1 00 01 1D 1D
 (000.169554)  can0  364   [4]  8A 01 00 00
 (000.199896)  can0  364   [4]  8A 01 00 00
 (000.200026)  can0  364   [4]  8A 01 00 00
 (000.199992)  can0  364   [4]  8A 01 00 00
 (000.199984)  can0  364   [4]  8A 01 00 00
 (000.015072)  can0  3A4   [6]  2D 09 07 01 01 5E
 (000.015065)  can0  624   [7]  0E 26 D1 00 01 1D 1D
 (000.169695)  can0  364   [4]  8A 01 00 00
 (000.200135)  can0  364   [4]  8A 01 00 00
 (000.200031)  can0  364   [4]  8A 01 00 00
 (000.200006)  can0  364   [4]  8A 01 00 00
 (000.199981)  can0  364   [4]  8A 01 00 00
 (000.015082)  can0  3A4   [6]  2E 09 07 01 01 5E
 (000.015470)  can0  624   [7]  0E 2B D1 00 01 1D 1D
 (000.169312)  can0  364   [4]  8A 01 00 00
 (000.200137)  can0  364   [4]  8A 01 00 00
 (000.200005)  can0  364   [4]  8A 01 00 00
 (000.199992)  can0  364   [4]  8A 01 00 00
